
T1738 000:095 SEGGER J-Link V6.18b Log File (0000ms, 0043ms total)
T1738 000:095 DLL Compiled: Aug 18 2017 19:01:12 (0000ms, 0043ms total)
T1738 000:095 Logging started @ 2018-08-10 11:15 (0000ms, 0043ms total)
T1738 000:095 JLINK_SetWarnOutHandler(...) (0000ms, 0043ms total)
T1738 000:095 JLINK_OpenEx(...)
Firmware: J-Link ARM V8 compiled Nov 28 2014 13:44:46
Hardware: V8.00
S/N: 17935099
Feature(s): RDI,FlashDL,FlashBP,JFlash
TELNET listener socket opened on port 19021WEBSRV 
Webserver running on local port 19080  returns O.K. (0024ms, 0067ms total)
T1738 000:119 JLINK_SetErrorOutHandler(...) (0000ms, 0067ms total)
T1738 000:119 JLINK_ExecCommand("ProjectFile = "C:\Users\ngoqu\Documents\GitHub\MCBSTM32\MDK\JLinkSettings.ini"", ...). C:\Program Files (x86)\SEGGER\JLink_V618b\JLinkDevices.xml evaluated successfully.  returns 0x00 (0171ms, 0238ms total)
T1738 000:293 JLINK_ExecCommand("Device = STM32F103RB", ...). Device "STM32F103RB" selected.  returns 0x00 (0007ms, 0245ms total)
T1738 000:300 JLINK_ExecCommand("DisableConnectionTimeout", ...).   returns 0x01 (0000ms, 0245ms total)
T1738 000:300 JLINK_GetHardwareVersion()  returns 0x13880 (0000ms, 0245ms total)
T1738 000:300 JLINK_GetDLLVersion()  returns 61802 (0000ms, 0245ms total)
T1738 000:300 JLINK_GetFirmwareString(...) (0000ms, 0245ms total)
T1738 000:309 JLINK_GetDLLVersion()  returns 61802 (0000ms, 0245ms total)
T1738 000:309 JLINK_GetCompileDateTime() (0000ms, 0245ms total)
T1738 000:311 JLINK_GetFirmwareString(...) (0000ms, 0245ms total)
T1738 000:314 JLINK_GetHardwareVersion()  returns 0x13880 (0000ms, 0245ms total)
T1738 000:323 JLINK_TIF_Select(JLINKARM_TIF_JTAG)  returns 0x00 (0008ms, 0253ms total)
T1738 000:331 JLINK_SetSpeed(5000) (0001ms, 0254ms total)
T1738 000:332 JLINK_GetIdData(...) >0x2F8 JTAG>TotalIRLen = 9, IRPrint = 0x0011 >0x30 JTAG> >0x50 JTAG>JTAG chain detection found 2 devices: #0 Id: 0x3BA00477, IRLen: 04, CoreSight JTAG-DP #1 Id: 0x16410041, IRLen: 05, STM32 Boundary Scan >0x40 JTAG> >0x40 JTAG> >0x40 JTAG> >0x30 JTAG> >0x40 JTAG> >0x40 JTAG> >0x40 JTAG> >0x40 JTAG> >0x40 JTAG> >0x40 JTAG> >0x40 JTAG> >0x40 JTAG> >0x40 JTAG> >0x40 JTAG> >0x40 JTAG> >0x40 JTAG> >0x40 JTAG> >0x40 JTAG> >0x40 JTAG> >0x40 JTAG> >0x40 JTAG> >0x40 JTAG>
 >0x40 JTAG> >0x40 JTAG> >0x40 JTAG> >0x40 JTAG> >0x40 JTAG> >0x2F8 JTAG>TotalIRLen = 9, IRPrint = 0x0011 >0x30 JTAG> >0x50 JTAG>JTAG chain detection found 2 devices: #0 Id: 0x3BA00477, IRLen: 04, CoreSight JTAG-DP #1 Id: 0x16410041, IRLen: 05, STM32 Boundary ScanScanning AP map to find all available APs >0x80 JTAG> >0x50 JTAG> >0x40 JTAG> >0x40 JTAG> >0x50 JTAG> >0x40 JTAG>AP[1]: Stopped AP scan as end of AP map has been reachedAP[0]: AHB-AP (IDR: 0x14770011)
Iterating through AP map to find AHB-AP to use >0x80 JTAG> >0x50 JTAG> >0x50 JTAG> >0x80 JTAG> >0x40 JTAG> >0x30 JTAG> >0x40 JTAG> >0x40 JTAG>AP[0]: Core foundAP[0]: AHB-AP ROM base: 0xE00FF000 >0x40 JTAG> >0x40 JTAG> >0x30 JTAG> >0x40 JTAG> >0x40 JTAG>CPUID register: 0x411FC231. Implementer code: 0x41 (ARM)Found Cortex-M3 r1p1, Little endian. -- CPU_ReadMem(4 bytes @ 0xE000EDF0) -- CPU_WriteMem(4 bytes @ 0xE000EDF0) -- CPU_ReadMem(4 bytes @ 0xE0002000)FPUnit: 6 code (BP) slots and 2 literal slots
 -- CPU_ReadMem(4 bytes @ 0xE000EDFC) -- CPU_WriteMem(4 bytes @ 0xE000EDFC) -- CPU_ReadMem(4 bytes @ 0xE0001000) -- CPU_WriteMem(4 bytes @ 0xE0001000) -- CPU_ReadMem(4 bytes @ 0xE000ED88) -- CPU_WriteMem(4 bytes @ 0xE000ED88) -- CPU_ReadMem(4 bytes @ 0xE000ED88) -- CPU_WriteMem(4 bytes @ 0xE000ED88)CoreSight components:ROMTbl[0] @ E00FF000 -- CPU_ReadMem(16 bytes @ 0xE00FF000) -- CPU_ReadMem(16 bytes @ 0xE000EFF0) -- CPU_ReadMem(16 bytes @ 0xE000EFE0)
ROMTbl[0][0]: E000E000, CID: B105E00D, PID: 001BB000 SCS -- CPU_ReadMem(16 bytes @ 0xE0001FF0) -- CPU_ReadMem(16 bytes @ 0xE0001FE0)ROMTbl[0][1]: E0001000, CID: B105E00D, PID: 001BB002 DWT -- CPU_ReadMem(16 bytes @ 0xE0002FF0) -- CPU_ReadMem(16 bytes @ 0xE0002FE0)ROMTbl[0][2]: E0002000, CID: B105E00D, PID: 000BB003 FPB -- CPU_ReadMem(16 bytes @ 0xE0000FF0) -- CPU_ReadMem(16 bytes @ 0xE0000FE0)ROMTbl[0][3]: E0000000, CID: B105E00D, PID: 001BB001 ITM -- CPU_ReadMem(16 bytes @ 0xE00FF010)
 -- CPU_ReadMem(16 bytes @ 0xE0040FF0) -- CPU_ReadMem(16 bytes @ 0xE0040FE0)ROMTbl[0][4]: E0040000, CID: B105900D, PID: 001BB923 TPIU-Lite ScanLen=9 NumDevices=2 aId[0]=0x3BA00477 aIrRead[0]=0 aScanLen[0]=0 aScanRead[0]=0 (0184ms, 0438ms total)
T1738 000:516 JLINK_JTAG_GetDeviceID(DeviceIndex = 0)  returns 0x3BA00477 (0000ms, 0438ms total)
T1738 000:516 JLINK_JTAG_GetDeviceInfo(DeviceIndex = 0)  returns 0x00 (0000ms, 0438ms total)
T1738 000:516 JLINK_JTAG_GetDeviceID(DeviceIndex = 1)  returns 0x16410041 (0000ms, 0438ms total)
T1738 000:516 JLINK_JTAG_GetDeviceInfo(DeviceIndex = 1)  returns 0x00 (0000ms, 0438ms total)
T1738 000:516 JLINK_GetDLLVersion()  returns 61802 (0000ms, 0438ms total)
T1738 000:516 JLINK_CORE_GetFound()  returns 0x30000FF (0000ms, 0438ms total)
T1738 000:516 JLINK_GetDebugInfo(0x100 = JLINKARM_ROM_TABLE_ADDR_INDEX) -- Value=0xE00FF000  returns 0x00 (0000ms, 0438ms total)
T1738 000:519 JLINK_GetDebugInfo(0x100 = JLINKARM_ROM_TABLE_ADDR_INDEX) -- Value=0xE00FF000  returns 0x00 (0000ms, 0438ms total)
T1738 000:519 JLINK_GetDebugInfo(0x101 = JLINKARM_DEBUG_INFO_ETM_ADDR_INDEX) -- Value=0x00000000  returns 0x00 (0000ms, 0438ms total)
T1738 000:519 JLINK_ReadMem (0xE0041FF0, 0x0010 Bytes, ...) -- CPU_ReadMem(16 bytes @ 0xE0041FF0) - Data: 00 00 00 00 00 00 00 00 00 00 00 00 00 00 00 00  returns 0x00 (0001ms, 0439ms total)
T1738 000:520 JLINK_GetDebugInfo(0x102 = JLINKARM_DEBUG_INFO_MTB_ADDR_INDEX) -- Value=0x00000000  returns 0x00 (0000ms, 0439ms total)
T1738 000:520 JLINK_GetDebugInfo(0x103 = JLINKARM_DEBUG_INFO_TPIU_ADDR_INDEX) -- Value=0xE0040000  returns 0x00 (0000ms, 0439ms total)
T1738 000:520 JLINK_GetDebugInfo(0x104 = JLINKARM_DEBUG_INFO_ITM_ADDR_INDEX) -- Value=0xE0000000  returns 0x00 (0000ms, 0439ms total)
T1738 000:520 JLINK_GetDebugInfo(0x105 = JLINKARM_DEBUG_INFO_DWT_ADDR_INDEX) -- Value=0xE0001000  returns 0x00 (0000ms, 0439ms total)
T1738 000:520 JLINK_GetDebugInfo(0x106 = JLINKARM_DEBUG_INFO_FPB_ADDR_INDEX) -- Value=0xE0002000  returns 0x00 (0000ms, 0439ms total)
T1738 000:520 JLINK_GetDebugInfo(0x107 = JLINKARM_DEBUG_INFO_NVIC_ADDR_INDEX) -- Value=0xE000E000  returns 0x00 (0000ms, 0439ms total)
T1738 000:520 JLINK_GetDebugInfo(0x10C = JLINKARM_DEBUG_INFO_DBG_ADDR_INDEX) -- Value=0xE000EDF0  returns 0x00 (0001ms, 0440ms total)
T1738 000:521 JLINK_ReadMemU32(0xE000ED00, 0x0001 Items, ...) -- CPU_ReadMem(4 bytes @ 0xE000ED00) - Data: 31 C2 1F 41  returns 0x01 (0001ms, 0441ms total)
T1738 000:522 JLINK_SetResetType(JLINKARM_CM3_RESET_TYPE_NORMAL)  returns JLINKARM_CM3_RESET_TYPE_NORMAL (0000ms, 0441ms total)
T1738 000:522 JLINK_Reset() -- CPU is running -- CPU_WriteMem(4 bytes @ 0xE000EDF0) -- CPU is running -- CPU_WriteMem(4 bytes @ 0xE000EDFC)Reset: Halt core after reset via DEMCR.VC_CORERESET.Reset: Reset device via AIRCR.SYSRESETREQ. -- CPU is running -- CPU_WriteMem(4 bytes @ 0xE000ED0C) -- CPU_ReadMem(4 bytes @ 0xE000EDF0) -- CPU_ReadMem(4 bytes @ 0xE000EDF0) -- CPU is running -- CPU_WriteMem(4 bytes @ 0xE000EDF0) -- CPU is running -- CPU_WriteMem(4 bytes @ 0xE000EDFC)
 -- CPU_ReadMem(4 bytes @ 0xE000EDF0) -- CPU_WriteMem(4 bytes @ 0xE000EDFC) -- CPU_WriteMem(4 bytes @ 0xE0001028) -- CPU_WriteMem(4 bytes @ 0xE0001038) -- CPU_WriteMem(4 bytes @ 0xE0001048) -- CPU_WriteMem(4 bytes @ 0xE0001058) -- CPU_WriteMem(4 bytes @ 0xE0002000) -- CPU_ReadMem(4 bytes @ 0xE000EDFC) -- CPU_ReadMem(4 bytes @ 0xE0001000) (0087ms, 0528ms total)
T1738 000:609 JLINK_Halt()  returns 0x00 (0000ms, 0528ms total)
T1738 000:609 JLINK_IsHalted()  returns TRUE (0000ms, 0528ms total)
T1738 000:609 JLINK_ReadMemU32(0xE000EDF0, 0x0001 Items, ...) -- CPU_ReadMem(4 bytes @ 0xE000EDF0) - Data: 03 00 03 00  returns 0x01 (0002ms, 0530ms total)
T1738 000:611 JLINK_WriteU32(0xE000EDF0, 0xA05F0003) -- CPU_WriteMem(4 bytes @ 0xE000EDF0)  returns 0x00 (0001ms, 0531ms total)
T1738 000:612 JLINK_WriteU32(0xE000EDFC, 0x01000000) -- CPU_WriteMem(4 bytes @ 0xE000EDFC)  returns 0x00 (0001ms, 0532ms total)
T1738 000:627 JLINK_GetHWStatus(...)  returns 0x00 (0001ms, 0533ms total)
T1738 000:638 JLINK_GetNumBPUnits(Type = 0xFFFFFF00)  returns 0x06 (0000ms, 0533ms total)
T1738 000:638 JLINK_GetNumBPUnits(Type = 0xF0)  returns 0x2000 (0000ms, 0533ms total)
T1738 000:638 JLINK_GetNumWPUnits()  returns 0x04 (0000ms, 0533ms total)
T1738 000:645 JLINK_GetSpeed()  returns 0x12C0 (0000ms, 0533ms total)
T1738 000:649 JLINK_ReadMemU32(0xE000E004, 0x0001 Items, ...) -- CPU_ReadMem(4 bytes @ 0xE000E004) - Data: 01 00 00 00  returns 0x01 (0001ms, 0534ms total)
T1738 000:650 JLINK_ReadMemU32(0xE000E004, 0x0001 Items, ...) -- CPU_ReadMem(4 bytes @ 0xE000E004) - Data: 01 00 00 00  returns 0x01 (0001ms, 0535ms total)
T1738 000:651 JLINK_WriteMem(0xE0001000, 0x001C Bytes, ...) - Data: 01 00 00 00 00 00 00 00 00 00 00 00 00 00 00 00 ... -- CPU_WriteMem(28 bytes @ 0xE0001000)  returns 0x1C (0002ms, 0537ms total)
T1738 000:653 JLINK_ReadMem (0xE0001000, 0x001C Bytes, ...) -- CPU_ReadMem(28 bytes @ 0xE0001000) - Data: 01 00 00 40 00 00 00 00 00 00 00 00 00 00 00 00 ...  returns 0x00 (0002ms, 0539ms total)
T1738 000:655 JLINK_Halt()  returns 0x00 (0000ms, 0539ms total)
T1738 000:655 JLINK_IsHalted()  returns TRUE (0000ms, 0539ms total)
T1738 000:659 JLINK_WriteMem(0x20000000, 0x0164 Bytes, ...) - Data: 00 BE 0A E0 0D 78 2D 06 68 40 08 24 40 00 00 D3 ... -- CPU_WriteMem(356 bytes @ 0x20000000)  returns 0x164 (0004ms, 0543ms total)
T1738 000:663 JLINK_WriteReg(R0, 0x08000000)  returns 0x00 (0000ms, 0543ms total)
T1738 000:663 JLINK_WriteReg(R1, 0x007A1200)  returns 0x00 (0001ms, 0544ms total)
T1738 000:664 JLINK_WriteReg(R2, 0x00000001)  returns 0x00 (0000ms, 0544ms total)
T1738 000:664 JLINK_WriteReg(R3, 0x00000000)  returns 0x00 (0000ms, 0544ms total)
T1738 000:664 JLINK_WriteReg(R4, 0x00000000)  returns 0x00 (0000ms, 0544ms total)
T1738 000:664 JLINK_WriteReg(R5, 0x00000000)  returns 0x00 (0000ms, 0544ms total)
T1738 000:664 JLINK_WriteReg(R6, 0x00000000)  returns 0x00 (0000ms, 0544ms total)
T1738 000:664 JLINK_WriteReg(R7, 0x00000000)  returns 0x00 (0000ms, 0544ms total)
T1738 000:664 JLINK_WriteReg(R8, 0x00000000)  returns 0x00 (0000ms, 0544ms total)
T1738 000:664 JLINK_WriteReg(R9, 0x20000160)  returns 0x00 (0000ms, 0544ms total)
T1738 000:664 JLINK_WriteReg(R10, 0x00000000)  returns 0x00 (0000ms, 0544ms total)
T1738 000:664 JLINK_WriteReg(R11, 0x00000000)  returns 0x00 (0000ms, 0544ms total)
T1738 000:664 JLINK_WriteReg(R12, 0x00000000)  returns 0x00 (0000ms, 0544ms total)
T1738 000:664 JLINK_WriteReg(R13 (SP), 0x20001000)  returns 0x00 (0000ms, 0544ms total)
T1738 000:664 JLINK_WriteReg(R14, 0x20000001)  returns 0x00 (0000ms, 0544ms total)
T1738 000:664 JLINK_WriteReg(R15 (PC), 0x20000038)  returns 0x00 (0000ms, 0544ms total)
T1738 000:664 JLINK_WriteReg(XPSR, 0x01000000)  returns 0x00 (0000ms, 0544ms total)
T1738 000:664 JLINK_WriteReg(MSP, 0x20001000)  returns 0x00 (0000ms, 0544ms total)
T1738 000:664 JLINK_WriteReg(PSP, 0x20001000)  returns 0x00 (0000ms, 0544ms total)
T1738 000:664 JLINK_WriteReg(CFBP, 0x00000000)  returns 0x00 (0000ms, 0544ms total)
T1738 000:664 JLINK_SetBPEx(Addr = 0x20000000, Type = 0xFFFFFFF2) -- CPU_ReadMem(2 bytes @ 0x20000000)  returns 0x00000001 (0002ms, 0546ms total)
T1738 000:666 JLINK_Go() -- CPU_WriteMem(2 bytes @ 0x20000000) -- CPU_ReadMem(4 bytes @ 0xE0001000) -- CPU_WriteMem(4 bytes @ 0xE0002008) -- CPU_WriteMem(4 bytes @ 0xE000200C) -- CPU_WriteMem(4 bytes @ 0xE0002010) -- CPU_WriteMem(4 bytes @ 0xE0002014) -- CPU_WriteMem(4 bytes @ 0xE0002018) -- CPU_WriteMem(4 bytes @ 0xE000201C) -- CPU_WriteMem(4 bytes @ 0xE0001004) (0010ms, 0556ms total)
T1738 000:676 JLINK_IsHalted() -- CPU_ReadMem(2 bytes @ 0x20000000)  returns TRUE (0005ms, 0561ms total)
T1738 000:681 JLINK_ReadReg(R15 (PC))  returns 0x20000000 (0000ms, 0556ms total)
T1738 000:681 JLINK_ClrBPEx(BPHandle = 0x00000001)  returns 0x00 (0000ms, 0556ms total)
T1738 000:682 JLINK_ReadReg(R0)  returns 0x00000000 (0000ms, 0557ms total)
T1738 000:682 JLINK_WriteReg(R0, 0x08000000)  returns 0x00 (0000ms, 0557ms total)
T1738 000:682 JLINK_WriteReg(R1, 0x007A1200)  returns 0x00 (0000ms, 0557ms total)
T1738 000:682 JLINK_WriteReg(R2, 0x00000001)  returns 0x00 (0000ms, 0557ms total)
T1738 000:682 JLINK_WriteReg(R3, 0x00000000)  returns 0x00 (0000ms, 0557ms total)
T1738 000:682 JLINK_WriteReg(R4, 0x00000000)  returns 0x00 (0000ms, 0557ms total)
T1738 000:682 JLINK_WriteReg(R5, 0x00000000)  returns 0x00 (0000ms, 0557ms total)
T1738 000:682 JLINK_WriteReg(R6, 0x00000000)  returns 0x00 (0000ms, 0557ms total)
T1738 000:682 JLINK_WriteReg(R7, 0x00000000)  returns 0x00 (0000ms, 0557ms total)
T1738 000:682 JLINK_WriteReg(R8, 0x00000000)  returns 0x00 (0000ms, 0557ms total)
T1738 000:682 JLINK_WriteReg(R9, 0x20000160)  returns 0x00 (0000ms, 0557ms total)
T1738 000:682 JLINK_WriteReg(R10, 0x00000000)  returns 0x00 (0000ms, 0557ms total)
T1738 000:682 JLINK_WriteReg(R11, 0x00000000)  returns 0x00 (0000ms, 0557ms total)
T1738 000:682 JLINK_WriteReg(R12, 0x00000000)  returns 0x00 (0000ms, 0557ms total)
T1738 000:682 JLINK_WriteReg(R13 (SP), 0x20001000)  returns 0x00 (0000ms, 0557ms total)
T1738 000:682 JLINK_WriteReg(R14, 0x20000001)  returns 0x00 (0000ms, 0557ms total)
T1738 000:682 JLINK_WriteReg(R15 (PC), 0x2000007C)  returns 0x00 (0000ms, 0557ms total)
T1738 000:683 JLINK_WriteReg(XPSR, 0x01000000)  returns 0x00 (0000ms, 0557ms total)
T1738 000:683 JLINK_WriteReg(MSP, 0x20001000)  returns 0x00 (0000ms, 0557ms total)
T1738 000:683 JLINK_WriteReg(PSP, 0x20001000)  returns 0x00 (0000ms, 0557ms total)
T1738 000:683 JLINK_WriteReg(CFBP, 0x00000000)  returns 0x00 (0000ms, 0557ms total)
T1738 000:683 JLINK_SetBPEx(Addr = 0x20000000, Type = 0xFFFFFFF2)  returns 0x00000002 (0000ms, 0557ms total)
T1738 000:683 JLINK_Go() -- CPU_ReadMem(4 bytes @ 0xE0001000) (0004ms, 0561ms total)
T1738 000:687 JLINK_IsHalted()  returns FALSE (0001ms, 0562ms total)
T1738 000:738 JLINK_IsHalted() -- CPU_ReadMem(2 bytes @ 0x20000000)  returns TRUE (0005ms, 0566ms total)
T1738 000:743 JLINK_ReadReg(R15 (PC))  returns 0x20000000 (0000ms, 0561ms total)
T1738 000:743 JLINK_ClrBPEx(BPHandle = 0x00000002)  returns 0x00 (0000ms, 0561ms total)
T1738 000:743 JLINK_ReadReg(R0)  returns 0x00000000 (0000ms, 0561ms total)
T1738 000:796 JLINK_WriteReg(R0, 0x00000001)  returns 0x00 (0000ms, 0561ms total)
T1738 000:796 JLINK_WriteReg(R1, 0x007A1200)  returns 0x00 (0000ms, 0561ms total)
T1738 000:796 JLINK_WriteReg(R2, 0x00000001)  returns 0x00 (0000ms, 0561ms total)
T1738 000:796 JLINK_WriteReg(R3, 0x00000000)  returns 0x00 (0000ms, 0561ms total)
T1738 000:796 JLINK_WriteReg(R4, 0x00000000)  returns 0x00 (0000ms, 0561ms total)
T1738 000:796 JLINK_WriteReg(R5, 0x00000000)  returns 0x00 (0000ms, 0561ms total)
T1738 000:796 JLINK_WriteReg(R6, 0x00000000)  returns 0x00 (0000ms, 0561ms total)
T1738 000:796 JLINK_WriteReg(R7, 0x00000000)  returns 0x00 (0000ms, 0561ms total)
T1738 000:796 JLINK_WriteReg(R8, 0x00000000)  returns 0x00 (0000ms, 0561ms total)
T1738 000:796 JLINK_WriteReg(R9, 0x20000160)  returns 0x00 (0000ms, 0561ms total)
T1738 000:796 JLINK_WriteReg(R10, 0x00000000)  returns 0x00 (0000ms, 0561ms total)
T1738 000:796 JLINK_WriteReg(R11, 0x00000000)  returns 0x00 (0000ms, 0561ms total)
T1738 000:796 JLINK_WriteReg(R12, 0x00000000)  returns 0x00 (0000ms, 0561ms total)
T1738 000:796 JLINK_WriteReg(R13 (SP), 0x20001000)  returns 0x00 (0000ms, 0561ms total)
T1738 000:796 JLINK_WriteReg(R14, 0x20000001)  returns 0x00 (0000ms, 0561ms total)
T1738 000:796 JLINK_WriteReg(R15 (PC), 0x2000006A)  returns 0x00 (0000ms, 0561ms total)
T1738 000:796 JLINK_WriteReg(XPSR, 0x01000000)  returns 0x00 (0000ms, 0561ms total)
T1738 000:796 JLINK_WriteReg(MSP, 0x20001000)  returns 0x00 (0000ms, 0561ms total)
T1738 000:796 JLINK_WriteReg(PSP, 0x20001000)  returns 0x00 (0000ms, 0561ms total)
T1738 000:796 JLINK_WriteReg(CFBP, 0x00000000)  returns 0x00 (0000ms, 0561ms total)
T1738 000:796 JLINK_SetBPEx(Addr = 0x20000000, Type = 0xFFFFFFF2)  returns 0x00000003 (0000ms, 0561ms total)
T1738 000:796 JLINK_Go() -- CPU_ReadMem(4 bytes @ 0xE0001000) (0004ms, 0565ms total)
T1738 000:800 JLINK_IsHalted() -- CPU_ReadMem(2 bytes @ 0x20000000)  returns TRUE (0006ms, 0571ms total)
T1738 000:806 JLINK_ReadReg(R15 (PC))  returns 0x20000000 (0000ms, 0565ms total)
T1738 000:806 JLINK_ClrBPEx(BPHandle = 0x00000003)  returns 0x00 (0000ms, 0565ms total)
T1738 000:806 JLINK_ReadReg(R0)  returns 0x00000000 (0000ms, 0565ms total)
T1738 000:814 JLINK_WriteMem(0x20000000, 0x0164 Bytes, ...) - Data: 00 BE 0A E0 0D 78 2D 06 68 40 08 24 40 00 00 D3 ... -- CPU_WriteMem(356 bytes @ 0x20000000)  returns 0x164 (0005ms, 0570ms total)
T1738 000:819 JLINK_WriteReg(R0, 0x08000000)  returns 0x00 (0000ms, 0570ms total)
T1738 000:819 JLINK_WriteReg(R1, 0x007A1200)  returns 0x00 (0000ms, 0570ms total)
T1738 000:819 JLINK_WriteReg(R2, 0x00000002)  returns 0x00 (0000ms, 0570ms total)
T1738 000:819 JLINK_WriteReg(R3, 0x00000000)  returns 0x00 (0000ms, 0570ms total)
T1738 000:819 JLINK_WriteReg(R4, 0x00000000)  returns 0x00 (0000ms, 0570ms total)
T1738 000:819 JLINK_WriteReg(R5, 0x00000000)  returns 0x00 (0000ms, 0570ms total)
T1738 000:819 JLINK_WriteReg(R6, 0x00000000)  returns 0x00 (0000ms, 0570ms total)
T1738 000:819 JLINK_WriteReg(R7, 0x00000000)  returns 0x00 (0000ms, 0570ms total)
T1738 000:819 JLINK_WriteReg(R8, 0x00000000)  returns 0x00 (0000ms, 0570ms total)
T1738 000:819 JLINK_WriteReg(R9, 0x20000160)  returns 0x00 (0000ms, 0570ms total)
T1738 000:819 JLINK_WriteReg(R10, 0x00000000)  returns 0x00 (0000ms, 0570ms total)
T1738 000:819 JLINK_WriteReg(R11, 0x00000000)  returns 0x00 (0000ms, 0570ms total)
T1738 000:819 JLINK_WriteReg(R12, 0x00000000)  returns 0x00 (0000ms, 0570ms total)
T1738 000:819 JLINK_WriteReg(R13 (SP), 0x20001000)  returns 0x00 (0000ms, 0570ms total)
T1738 000:819 JLINK_WriteReg(R14, 0x20000001)  returns 0x00 (0000ms, 0570ms total)
T1738 000:819 JLINK_WriteReg(R15 (PC), 0x20000038)  returns 0x00 (0000ms, 0570ms total)
T1738 000:819 JLINK_WriteReg(XPSR, 0x01000000)  returns 0x00 (0000ms, 0570ms total)
T1738 000:819 JLINK_WriteReg(MSP, 0x20001000)  returns 0x00 (0000ms, 0570ms total)
T1738 000:819 JLINK_WriteReg(PSP, 0x20001000)  returns 0x00 (0000ms, 0570ms total)
T1738 000:819 JLINK_WriteReg(CFBP, 0x00000000)  returns 0x00 (0000ms, 0570ms total)
T1738 000:819 JLINK_SetBPEx(Addr = 0x20000000, Type = 0xFFFFFFF2) -- CPU_ReadMem(2 bytes @ 0x20000000)  returns 0x00000004 (0001ms, 0571ms total)
T1738 000:820 JLINK_Go() -- CPU_WriteMem(2 bytes @ 0x20000000) -- CPU_ReadMem(4 bytes @ 0xE0001000) (0006ms, 0577ms total)
T1738 000:826 JLINK_IsHalted() -- CPU_ReadMem(2 bytes @ 0x20000000)  returns TRUE (0006ms, 0583ms total)
T1738 000:832 JLINK_ReadReg(R15 (PC))  returns 0x20000000 (0000ms, 0577ms total)
T1738 000:832 JLINK_ClrBPEx(BPHandle = 0x00000004)  returns 0x00 (0000ms, 0577ms total)
T1738 000:832 JLINK_ReadReg(R0)  returns 0x00000000 (0000ms, 0577ms total)
T1738 000:832 JLINK_WriteMem(0x20000164, 0x0400 Bytes, ...) - Data: B8 04 00 20 01 01 00 08 FF 08 00 08 8D 05 00 08 ... -- CPU_WriteMem(1024 bytes @ 0x20000164)  returns 0x400 (0009ms, 0586ms total)
T1738 000:841 JLINK_WriteReg(R0, 0x08000000)  returns 0x00 (0000ms, 0586ms total)
T1738 000:841 JLINK_WriteReg(R1, 0x00000400)  returns 0x00 (0000ms, 0586ms total)
T1738 000:841 JLINK_WriteReg(R2, 0x20000164)  returns 0x00 (0000ms, 0586ms total)
T1738 000:841 JLINK_WriteReg(R3, 0x00000000)  returns 0x00 (0000ms, 0586ms total)
T1738 000:841 JLINK_WriteReg(R4, 0x00000000)  returns 0x00 (0000ms, 0586ms total)
T1738 000:841 JLINK_WriteReg(R5, 0x00000000)  returns 0x00 (0000ms, 0586ms total)
T1738 000:841 JLINK_WriteReg(R6, 0x00000000)  returns 0x00 (0000ms, 0586ms total)
T1738 000:841 JLINK_WriteReg(R7, 0x00000000)  returns 0x00 (0000ms, 0586ms total)
T1738 000:841 JLINK_WriteReg(R8, 0x00000000)  returns 0x00 (0001ms, 0587ms total)
T1738 000:842 JLINK_WriteReg(R9, 0x20000160)  returns 0x00 (0000ms, 0587ms total)
T1738 000:842 JLINK_WriteReg(R10, 0x00000000)  returns 0x00 (0000ms, 0587ms total)
T1738 000:842 JLINK_WriteReg(R11, 0x00000000)  returns 0x00 (0000ms, 0587ms total)
T1738 000:842 JLINK_WriteReg(R12, 0x00000000)  returns 0x00 (0000ms, 0587ms total)
T1738 000:842 JLINK_WriteReg(R13 (SP), 0x20001000)  returns 0x00 (0000ms, 0587ms total)
T1738 000:842 JLINK_WriteReg(R14, 0x20000001)  returns 0x00 (0000ms, 0587ms total)
T1738 000:842 JLINK_WriteReg(R15 (PC), 0x200000F4)  returns 0x00 (0000ms, 0587ms total)
T1738 000:842 JLINK_WriteReg(XPSR, 0x01000000)  returns 0x00 (0000ms, 0587ms total)
T1738 000:842 JLINK_WriteReg(MSP, 0x20001000)  returns 0x00 (0000ms, 0587ms total)
T1738 000:842 JLINK_WriteReg(PSP, 0x20001000)  returns 0x00 (0000ms, 0587ms total)
T1738 000:842 JLINK_WriteReg(CFBP, 0x00000000)  returns 0x00 (0000ms, 0587ms total)
T1738 000:842 JLINK_SetBPEx(Addr = 0x20000000, Type = 0xFFFFFFF2)  returns 0x00000005 (0000ms, 0587ms total)
T1738 000:842 JLINK_Go() -- CPU_ReadMem(4 bytes @ 0xE0001000) (0004ms, 0591ms total)
T1738 000:846 JLINK_IsHalted()  returns FALSE (0001ms, 0592ms total)
T1738 000:861 JLINK_IsHalted()  returns FALSE (0000ms, 0591ms total)
T1738 000:863 JLINK_IsHalted()  returns FALSE (0000ms, 0591ms total)
T1738 000:865 JLINK_IsHalted()  returns FALSE (0000ms, 0591ms total)
T1738 000:867 JLINK_IsHalted()  returns FALSE (0000ms, 0591ms total)
T1738 000:869 JLINK_IsHalted()  returns FALSE (0000ms, 0591ms total)
T1738 000:871 JLINK_IsHalted()  returns FALSE (0000ms, 0591ms total)
T1738 000:873 JLINK_IsHalted()  returns FALSE (0000ms, 0591ms total)
T1738 000:875 JLINK_IsHalted()  returns FALSE (0000ms, 0591ms total)
T1738 000:877 JLINK_IsHalted() -- CPU_ReadMem(2 bytes @ 0x20000000)  returns TRUE (0006ms, 0597ms total)
T1738 000:883 JLINK_ReadReg(R15 (PC))  returns 0x20000000 (0000ms, 0591ms total)
T1738 000:883 JLINK_ClrBPEx(BPHandle = 0x00000005)  returns 0x00 (0000ms, 0591ms total)
T1738 000:883 JLINK_ReadReg(R0)  returns 0x00000000 (0000ms, 0591ms total)
T1738 000:884 JLINK_WriteMem(0x20000164, 0x0400 Bytes, ...) - Data: 21 68 A8 00 0F 22 82 40 91 43 21 60 47 EA 86 01 ... -- CPU_WriteMem(1024 bytes @ 0x20000164)  returns 0x400 (0009ms, 0600ms total)
T1738 000:893 JLINK_WriteReg(R0, 0x08000400)  returns 0x00 (0000ms, 0600ms total)
T1738 000:893 JLINK_WriteReg(R1, 0x00000400)  returns 0x00 (0000ms, 0600ms total)
T1738 000:893 JLINK_WriteReg(R2, 0x20000164)  returns 0x00 (0000ms, 0600ms total)
T1738 000:893 JLINK_WriteReg(R3, 0x00000000)  returns 0x00 (0000ms, 0600ms total)
T1738 000:893 JLINK_WriteReg(R4, 0x00000000)  returns 0x00 (0000ms, 0600ms total)
T1738 000:893 JLINK_WriteReg(R5, 0x00000000)  returns 0x00 (0000ms, 0600ms total)
T1738 000:893 JLINK_WriteReg(R6, 0x00000000)  returns 0x00 (0000ms, 0600ms total)
T1738 000:893 JLINK_WriteReg(R7, 0x00000000)  returns 0x00 (0000ms, 0600ms total)
T1738 000:893 JLINK_WriteReg(R8, 0x00000000)  returns 0x00 (0000ms, 0600ms total)
T1738 000:893 JLINK_WriteReg(R9, 0x20000160)  returns 0x00 (0000ms, 0600ms total)
T1738 000:893 JLINK_WriteReg(R10, 0x00000000)  returns 0x00 (0000ms, 0600ms total)
T1738 000:893 JLINK_WriteReg(R11, 0x00000000)  returns 0x00 (0000ms, 0600ms total)
T1738 000:893 JLINK_WriteReg(R12, 0x00000000)  returns 0x00 (0000ms, 0600ms total)
T1738 000:893 JLINK_WriteReg(R13 (SP), 0x20001000)  returns 0x00 (0000ms, 0600ms total)
T1738 000:893 JLINK_WriteReg(R14, 0x20000001)  returns 0x00 (0000ms, 0600ms total)
T1738 000:893 JLINK_WriteReg(R15 (PC), 0x200000F4)  returns 0x00 (0000ms, 0600ms total)
T1738 000:893 JLINK_WriteReg(XPSR, 0x01000000)  returns 0x00 (0000ms, 0600ms total)
T1738 000:893 JLINK_WriteReg(MSP, 0x20001000)  returns 0x00 (0000ms, 0600ms total)
T1738 000:893 JLINK_WriteReg(PSP, 0x20001000)  returns 0x00 (0000ms, 0600ms total)
T1738 000:893 JLINK_WriteReg(CFBP, 0x00000000)  returns 0x00 (0000ms, 0600ms total)
T1738 000:893 JLINK_SetBPEx(Addr = 0x20000000, Type = 0xFFFFFFF2)  returns 0x00000006 (0000ms, 0600ms total)
T1738 000:893 JLINK_Go() -- CPU_ReadMem(4 bytes @ 0xE0001000) (0004ms, 0604ms total)
T1738 000:897 JLINK_IsHalted()  returns FALSE (0002ms, 0606ms total)
T1738 000:901 JLINK_IsHalted()  returns FALSE (0001ms, 0605ms total)
T1738 000:904 JLINK_IsHalted()  returns FALSE (0001ms, 0605ms total)
T1738 000:907 JLINK_IsHalted()  returns FALSE (0001ms, 0605ms total)
T1738 000:910 JLINK_IsHalted()  returns FALSE (0000ms, 0604ms total)
T1738 000:912 JLINK_IsHalted()  returns FALSE (0000ms, 0604ms total)
T1738 000:914 JLINK_IsHalted()  returns FALSE (0000ms, 0604ms total)
T1738 000:916 JLINK_IsHalted()  returns FALSE (0000ms, 0604ms total)
T1738 000:918 JLINK_IsHalted()  returns FALSE (0000ms, 0604ms total)
T1738 000:920 JLINK_IsHalted()  returns FALSE (0000ms, 0604ms total)
T1738 000:922 JLINK_IsHalted()  returns FALSE (0001ms, 0605ms total)
T1738 000:925 JLINK_IsHalted()  returns FALSE (0001ms, 0605ms total)
T1738 000:928 JLINK_IsHalted() -- CPU_ReadMem(2 bytes @ 0x20000000)  returns TRUE (0005ms, 0609ms total)
T1738 000:933 JLINK_ReadReg(R15 (PC))  returns 0x20000000 (0000ms, 0604ms total)
T1738 000:933 JLINK_ClrBPEx(BPHandle = 0x00000006)  returns 0x00 (0000ms, 0604ms total)
T1738 000:933 JLINK_ReadReg(R0)  returns 0x00000000 (0000ms, 0604ms total)
T1738 000:934 JLINK_WriteMem(0x20000164, 0x0400 Bytes, ...) - Data: 4F F0 80 70 20 61 C0 00 20 61 00 20 00 F0 42 F8 ... -- CPU_WriteMem(1024 bytes @ 0x20000164)  returns 0x400 (0009ms, 0613ms total)
T1738 000:943 JLINK_WriteReg(R0, 0x08000800)  returns 0x00 (0000ms, 0613ms total)
T1738 000:943 JLINK_WriteReg(R1, 0x00000400)  returns 0x00 (0000ms, 0613ms total)
T1738 000:943 JLINK_WriteReg(R2, 0x20000164)  returns 0x00 (0000ms, 0613ms total)
T1738 000:943 JLINK_WriteReg(R3, 0x00000000)  returns 0x00 (0000ms, 0613ms total)
T1738 000:943 JLINK_WriteReg(R4, 0x00000000)  returns 0x00 (0000ms, 0613ms total)
T1738 000:943 JLINK_WriteReg(R5, 0x00000000)  returns 0x00 (0000ms, 0613ms total)
T1738 000:943 JLINK_WriteReg(R6, 0x00000000)  returns 0x00 (0000ms, 0613ms total)
T1738 000:943 JLINK_WriteReg(R7, 0x00000000)  returns 0x00 (0000ms, 0613ms total)
T1738 000:943 JLINK_WriteReg(R8, 0x00000000)  returns 0x00 (0000ms, 0613ms total)
T1738 000:943 JLINK_WriteReg(R9, 0x20000160)  returns 0x00 (0000ms, 0613ms total)
T1738 000:943 JLINK_WriteReg(R10, 0x00000000)  returns 0x00 (0000ms, 0613ms total)
T1738 000:943 JLINK_WriteReg(R11, 0x00000000)  returns 0x00 (0000ms, 0613ms total)
T1738 000:943 JLINK_WriteReg(R12, 0x00000000)  returns 0x00 (0000ms, 0613ms total)
T1738 000:943 JLINK_WriteReg(R13 (SP), 0x20001000)  returns 0x00 (0000ms, 0613ms total)
T1738 000:943 JLINK_WriteReg(R14, 0x20000001)  returns 0x00 (0000ms, 0613ms total)
T1738 000:943 JLINK_WriteReg(R15 (PC), 0x200000F4)  returns 0x00 (0000ms, 0613ms total)
T1738 000:943 JLINK_WriteReg(XPSR, 0x01000000)  returns 0x00 (0000ms, 0613ms total)
T1738 000:943 JLINK_WriteReg(MSP, 0x20001000)  returns 0x00 (0000ms, 0613ms total)
T1738 000:943 JLINK_WriteReg(PSP, 0x20001000)  returns 0x00 (0000ms, 0613ms total)
T1738 000:943 JLINK_WriteReg(CFBP, 0x00000000)  returns 0x00 (0000ms, 0613ms total)
T1738 000:943 JLINK_SetBPEx(Addr = 0x20000000, Type = 0xFFFFFFF2)  returns 0x00000007 (0000ms, 0613ms total)
T1738 000:943 JLINK_Go() -- CPU_ReadMem(4 bytes @ 0xE0001000) (0004ms, 0617ms total)
T1738 000:947 JLINK_IsHalted()  returns FALSE (0002ms, 0619ms total)
T1738 000:952 JLINK_IsHalted()  returns FALSE (0001ms, 0618ms total)
T1738 000:955 JLINK_IsHalted()  returns FALSE (0000ms, 0617ms total)
T1738 000:957 JLINK_IsHalted()  returns FALSE (0001ms, 0618ms total)
T1738 000:962 JLINK_IsHalted()  returns FALSE (0001ms, 0618ms total)
T1738 000:965 JLINK_IsHalted()  returns FALSE (0001ms, 0618ms total)
T1738 000:968 JLINK_IsHalted()  returns FALSE (0000ms, 0617ms total)
T1738 000:970 JLINK_IsHalted()  returns FALSE (0000ms, 0617ms total)
T1738 000:972 JLINK_IsHalted()  returns FALSE (0000ms, 0617ms total)
T1738 000:974 JLINK_IsHalted()  returns FALSE (0001ms, 0618ms total)
T1738 000:977 JLINK_IsHalted()  returns FALSE (0000ms, 0617ms total)
T1738 000:979 JLINK_IsHalted() -- CPU_ReadMem(2 bytes @ 0x20000000)  returns TRUE (0005ms, 0622ms total)
T1738 000:984 JLINK_ReadReg(R15 (PC))  returns 0x20000000 (0000ms, 0617ms total)
T1738 000:984 JLINK_ClrBPEx(BPHandle = 0x00000007)  returns 0x00 (0000ms, 0617ms total)
T1738 000:984 JLINK_ReadReg(R0)  returns 0x00000000 (0000ms, 0617ms total)
T1738 000:985 JLINK_WriteMem(0x20000164, 0x0400 Bytes, ...) - Data: 01 20 8D F8 01 00 00 21 8D F8 02 10 8D F8 03 00 ... -- CPU_WriteMem(1024 bytes @ 0x20000164)  returns 0x400 (0009ms, 0626ms total)
T1738 000:994 JLINK_WriteReg(R0, 0x08000C00)  returns 0x00 (0000ms, 0626ms total)
T1738 000:994 JLINK_WriteReg(R1, 0x00000400)  returns 0x00 (0000ms, 0626ms total)
T1738 000:994 JLINK_WriteReg(R2, 0x20000164)  returns 0x00 (0000ms, 0626ms total)
T1738 000:994 JLINK_WriteReg(R3, 0x00000000)  returns 0x00 (0000ms, 0626ms total)
T1738 000:994 JLINK_WriteReg(R4, 0x00000000)  returns 0x00 (0000ms, 0626ms total)
T1738 000:994 JLINK_WriteReg(R5, 0x00000000)  returns 0x00 (0000ms, 0626ms total)
T1738 000:994 JLINK_WriteReg(R6, 0x00000000)  returns 0x00 (0000ms, 0626ms total)
T1738 000:994 JLINK_WriteReg(R7, 0x00000000)  returns 0x00 (0000ms, 0626ms total)
T1738 000:994 JLINK_WriteReg(R8, 0x00000000)  returns 0x00 (0000ms, 0626ms total)
T1738 000:994 JLINK_WriteReg(R9, 0x20000160)  returns 0x00 (0000ms, 0626ms total)
T1738 000:994 JLINK_WriteReg(R10, 0x00000000)  returns 0x00 (0000ms, 0626ms total)
T1738 000:994 JLINK_WriteReg(R11, 0x00000000)  returns 0x00 (0000ms, 0626ms total)
T1738 000:994 JLINK_WriteReg(R12, 0x00000000)  returns 0x00 (0000ms, 0626ms total)
T1738 000:994 JLINK_WriteReg(R13 (SP), 0x20001000)  returns 0x00 (0000ms, 0626ms total)
T1738 000:994 JLINK_WriteReg(R14, 0x20000001)  returns 0x00 (0000ms, 0626ms total)
T1738 000:994 JLINK_WriteReg(R15 (PC), 0x200000F4)  returns 0x00 (0000ms, 0626ms total)
T1738 000:994 JLINK_WriteReg(XPSR, 0x01000000)  returns 0x00 (0000ms, 0626ms total)
T1738 000:994 JLINK_WriteReg(MSP, 0x20001000)  returns 0x00 (0000ms, 0626ms total)
T1738 000:994 JLINK_WriteReg(PSP, 0x20001000)  returns 0x00 (0000ms, 0626ms total)
T1738 000:994 JLINK_WriteReg(CFBP, 0x00000000)  returns 0x00 (0000ms, 0626ms total)
T1738 000:994 JLINK_SetBPEx(Addr = 0x20000000, Type = 0xFFFFFFF2)  returns 0x00000008 (0000ms, 0626ms total)
T1738 000:994 JLINK_Go() -- CPU_ReadMem(4 bytes @ 0xE0001000) (0004ms, 0630ms total)
T1738 000:998 JLINK_IsHalted()  returns FALSE (0001ms, 0631ms total)
T1738 001:001 JLINK_IsHalted()  returns FALSE (0001ms, 0631ms total)
T1738 001:004 JLINK_IsHalted()  returns FALSE (0000ms, 0630ms total)
T1738 001:006 JLINK_IsHalted()  returns FALSE (0000ms, 0630ms total)
T1738 001:008 JLINK_IsHalted()  returns FALSE (0000ms, 0630ms total)
T1738 001:010 JLINK_IsHalted()  returns FALSE (0000ms, 0630ms total)
T1738 001:012 JLINK_IsHalted()  returns FALSE (0000ms, 0630ms total)
T1738 001:014 JLINK_IsHalted()  returns FALSE (0000ms, 0630ms total)
T1738 001:016 JLINK_IsHalted()  returns FALSE (0000ms, 0630ms total)
T1738 001:018 JLINK_IsHalted()  returns FALSE (0001ms, 0631ms total)
T1738 001:021 JLINK_IsHalted()  returns FALSE (0000ms, 0630ms total)
T1738 001:023 JLINK_IsHalted()  returns FALSE (0000ms, 0630ms total)
T1738 001:025 JLINK_IsHalted()  returns FALSE (0000ms, 0630ms total)
T1738 001:027 JLINK_IsHalted()  returns FALSE (0000ms, 0630ms total)
T1738 001:029 JLINK_IsHalted() -- CPU_ReadMem(2 bytes @ 0x20000000)  returns TRUE (0005ms, 0635ms total)
T1738 001:034 JLINK_ReadReg(R15 (PC))  returns 0x20000000 (0000ms, 0630ms total)
T1738 001:034 JLINK_ClrBPEx(BPHandle = 0x00000008)  returns 0x00 (0000ms, 0630ms total)
T1738 001:034 JLINK_ReadReg(R0)  returns 0x00000000 (0000ms, 0630ms total)
T1738 001:035 JLINK_WriteMem(0x20000164, 0x0400 Bytes, ...) - Data: 2B 43 83 80 04 83 C9 88 81 86 02 84 30 BD 00 00 ... -- CPU_WriteMem(1024 bytes @ 0x20000164)  returns 0x400 (0009ms, 0639ms total)
T1738 001:044 JLINK_WriteReg(R0, 0x08001000)  returns 0x00 (0000ms, 0639ms total)
T1738 001:044 JLINK_WriteReg(R1, 0x00000400)  returns 0x00 (0000ms, 0639ms total)
T1738 001:044 JLINK_WriteReg(R2, 0x20000164)  returns 0x00 (0000ms, 0639ms total)
T1738 001:044 JLINK_WriteReg(R3, 0x00000000)  returns 0x00 (0000ms, 0639ms total)
T1738 001:044 JLINK_WriteReg(R4, 0x00000000)  returns 0x00 (0000ms, 0639ms total)
T1738 001:044 JLINK_WriteReg(R5, 0x00000000)  returns 0x00 (0000ms, 0639ms total)
T1738 001:044 JLINK_WriteReg(R6, 0x00000000)  returns 0x00 (0000ms, 0639ms total)
T1738 001:044 JLINK_WriteReg(R7, 0x00000000)  returns 0x00 (0000ms, 0639ms total)
T1738 001:044 JLINK_WriteReg(R8, 0x00000000)  returns 0x00 (0000ms, 0639ms total)
T1738 001:044 JLINK_WriteReg(R9, 0x20000160)  returns 0x00 (0000ms, 0639ms total)
T1738 001:044 JLINK_WriteReg(R10, 0x00000000)  returns 0x00 (0000ms, 0639ms total)
T1738 001:044 JLINK_WriteReg(R11, 0x00000000)  returns 0x00 (0000ms, 0639ms total)
T1738 001:044 JLINK_WriteReg(R12, 0x00000000)  returns 0x00 (0000ms, 0639ms total)
T1738 001:044 JLINK_WriteReg(R13 (SP), 0x20001000)  returns 0x00 (0000ms, 0639ms total)
T1738 001:044 JLINK_WriteReg(R14, 0x20000001)  returns 0x00 (0000ms, 0639ms total)
T1738 001:044 JLINK_WriteReg(R15 (PC), 0x200000F4)  returns 0x00 (0000ms, 0639ms total)
T1738 001:044 JLINK_WriteReg(XPSR, 0x01000000)  returns 0x00 (0000ms, 0639ms total)
T1738 001:044 JLINK_WriteReg(MSP, 0x20001000)  returns 0x00 (0000ms, 0639ms total)
T1738 001:044 JLINK_WriteReg(PSP, 0x20001000)  returns 0x00 (0000ms, 0639ms total)
T1738 001:044 JLINK_WriteReg(CFBP, 0x00000000)  returns 0x00 (0000ms, 0639ms total)
T1738 001:044 JLINK_SetBPEx(Addr = 0x20000000, Type = 0xFFFFFFF2)  returns 0x00000009 (0000ms, 0639ms total)
T1738 001:044 JLINK_Go() -- CPU_ReadMem(4 bytes @ 0xE0001000) (0004ms, 0643ms total)
T1738 001:048 JLINK_IsHalted()  returns FALSE (0001ms, 0644ms total)
T1738 001:051 JLINK_IsHalted()  returns FALSE (0000ms, 0643ms total)
T1738 001:053 JLINK_IsHalted()  returns FALSE (0000ms, 0643ms total)
T1738 001:055 JLINK_IsHalted()  returns FALSE (0000ms, 0643ms total)
T1738 001:057 JLINK_IsHalted()  returns FALSE (0000ms, 0643ms total)
T1738 001:061 JLINK_IsHalted()  returns FALSE (0001ms, 0644ms total)
T1738 001:064 JLINK_IsHalted()  returns FALSE (0001ms, 0644ms total)
T1738 001:067 JLINK_IsHalted()  returns FALSE (0001ms, 0644ms total)
T1738 001:070 JLINK_IsHalted()  returns FALSE (0001ms, 0644ms total)
T1738 001:073 JLINK_IsHalted()  returns FALSE (0000ms, 0643ms total)
T1738 001:075 JLINK_IsHalted()  returns FALSE (0000ms, 0643ms total)
T1738 001:077 JLINK_IsHalted()  returns FALSE (0000ms, 0643ms total)
T1738 001:079 JLINK_IsHalted() -- CPU_ReadMem(2 bytes @ 0x20000000)  returns TRUE (0005ms, 0648ms total)
T1738 001:084 JLINK_ReadReg(R15 (PC))  returns 0x20000000 (0000ms, 0643ms total)
T1738 001:084 JLINK_ClrBPEx(BPHandle = 0x00000009)  returns 0x00 (0000ms, 0643ms total)
T1738 001:084 JLINK_ReadReg(R0)  returns 0x00000000 (0000ms, 0643ms total)
T1738 001:085 JLINK_WriteMem(0x20000164, 0x0400 Bytes, ...) - Data: 08 48 00 1D 01 88 08 48 32 22 82 61 07 4B 42 78 ... -- CPU_WriteMem(1024 bytes @ 0x20000164)  returns 0x400 (0008ms, 0651ms total)
T1738 001:093 JLINK_WriteReg(R0, 0x08001400)  returns 0x00 (0001ms, 0652ms total)
T1738 001:094 JLINK_WriteReg(R1, 0x00000400)  returns 0x00 (0000ms, 0652ms total)
T1738 001:094 JLINK_WriteReg(R2, 0x20000164)  returns 0x00 (0000ms, 0652ms total)
T1738 001:094 JLINK_WriteReg(R3, 0x00000000)  returns 0x00 (0000ms, 0652ms total)
T1738 001:094 JLINK_WriteReg(R4, 0x00000000)  returns 0x00 (0000ms, 0652ms total)
T1738 001:094 JLINK_WriteReg(R5, 0x00000000)  returns 0x00 (0000ms, 0652ms total)
T1738 001:094 JLINK_WriteReg(R6, 0x00000000)  returns 0x00 (0000ms, 0652ms total)
T1738 001:094 JLINK_WriteReg(R7, 0x00000000)  returns 0x00 (0000ms, 0652ms total)
T1738 001:094 JLINK_WriteReg(R8, 0x00000000)  returns 0x00 (0000ms, 0652ms total)
T1738 001:094 JLINK_WriteReg(R9, 0x20000160)  returns 0x00 (0000ms, 0652ms total)
T1738 001:094 JLINK_WriteReg(R10, 0x00000000)  returns 0x00 (0000ms, 0652ms total)
T1738 001:094 JLINK_WriteReg(R11, 0x00000000)  returns 0x00 (0000ms, 0652ms total)
T1738 001:094 JLINK_WriteReg(R12, 0x00000000)  returns 0x00 (0000ms, 0652ms total)
T1738 001:094 JLINK_WriteReg(R13 (SP), 0x20001000)  returns 0x00 (0000ms, 0652ms total)
T1738 001:094 JLINK_WriteReg(R14, 0x20000001)  returns 0x00 (0000ms, 0652ms total)
T1738 001:094 JLINK_WriteReg(R15 (PC), 0x200000F4)  returns 0x00 (0000ms, 0652ms total)
T1738 001:094 JLINK_WriteReg(XPSR, 0x01000000)  returns 0x00 (0000ms, 0652ms total)
T1738 001:094 JLINK_WriteReg(MSP, 0x20001000)  returns 0x00 (0000ms, 0652ms total)
T1738 001:094 JLINK_WriteReg(PSP, 0x20001000)  returns 0x00 (0000ms, 0652ms total)
T1738 001:094 JLINK_WriteReg(CFBP, 0x00000000)  returns 0x00 (0000ms, 0652ms total)
T1738 001:094 JLINK_SetBPEx(Addr = 0x20000000, Type = 0xFFFFFFF2)  returns 0x0000000A (0000ms, 0652ms total)
T1738 001:094 JLINK_Go() -- CPU_ReadMem(4 bytes @ 0xE0001000) (0004ms, 0656ms total)
T1738 001:098 JLINK_IsHalted()  returns FALSE (0001ms, 0657ms total)
T1738 001:103 JLINK_IsHalted()  returns FALSE (0001ms, 0657ms total)
T1738 001:106 JLINK_IsHalted()  returns FALSE (0001ms, 0657ms total)
T1738 001:109 JLINK_IsHalted()  returns FALSE (0001ms, 0657ms total)
T1738 001:112 JLINK_IsHalted()  returns FALSE (0000ms, 0656ms total)
T1738 001:114 JLINK_IsHalted()  returns FALSE (0000ms, 0656ms total)
T1738 001:116 JLINK_IsHalted()  returns FALSE (0000ms, 0656ms total)
T1738 001:118 JLINK_IsHalted()  returns FALSE (0001ms, 0657ms total)
T1738 001:121 JLINK_IsHalted()  returns FALSE (0001ms, 0657ms total)
T1738 001:124 JLINK_IsHalted()  returns FALSE (0001ms, 0657ms total)
T1738 001:127 JLINK_IsHalted()  returns FALSE (0000ms, 0656ms total)
T1738 001:129 JLINK_IsHalted() -- CPU_ReadMem(2 bytes @ 0x20000000)  returns TRUE (0005ms, 0661ms total)
T1738 001:134 JLINK_ReadReg(R15 (PC))  returns 0x20000000 (0000ms, 0656ms total)
T1738 001:134 JLINK_ClrBPEx(BPHandle = 0x0000000A)  returns 0x00 (0000ms, 0656ms total)
T1738 001:134 JLINK_ReadReg(R0)  returns 0x00000000 (0000ms, 0656ms total)
T1738 001:136 JLINK_WriteMem(0x20000164, 0x0400 Bytes, ...) - Data: 4B FB 23 48 4F F4 7A 71 00 68 B0 FB F1 F0 40 1E ... -- CPU_WriteMem(1024 bytes @ 0x20000164)  returns 0x400 (0009ms, 0665ms total)
T1738 001:145 JLINK_WriteReg(R0, 0x08001800)  returns 0x00 (0000ms, 0665ms total)
T1738 001:145 JLINK_WriteReg(R1, 0x00000400)  returns 0x00 (0000ms, 0665ms total)
T1738 001:145 JLINK_WriteReg(R2, 0x20000164)  returns 0x00 (0000ms, 0665ms total)
T1738 001:145 JLINK_WriteReg(R3, 0x00000000)  returns 0x00 (0000ms, 0665ms total)
T1738 001:145 JLINK_WriteReg(R4, 0x00000000)  returns 0x00 (0000ms, 0665ms total)
T1738 001:145 JLINK_WriteReg(R5, 0x00000000)  returns 0x00 (0000ms, 0665ms total)
T1738 001:145 JLINK_WriteReg(R6, 0x00000000)  returns 0x00 (0000ms, 0665ms total)
T1738 001:145 JLINK_WriteReg(R7, 0x00000000)  returns 0x00 (0000ms, 0665ms total)
T1738 001:145 JLINK_WriteReg(R8, 0x00000000)  returns 0x00 (0000ms, 0665ms total)
T1738 001:145 JLINK_WriteReg(R9, 0x20000160)  returns 0x00 (0000ms, 0665ms total)
T1738 001:145 JLINK_WriteReg(R10, 0x00000000)  returns 0x00 (0000ms, 0665ms total)
T1738 001:145 JLINK_WriteReg(R11, 0x00000000)  returns 0x00 (0000ms, 0665ms total)
T1738 001:145 JLINK_WriteReg(R12, 0x00000000)  returns 0x00 (0000ms, 0665ms total)
T1738 001:145 JLINK_WriteReg(R13 (SP), 0x20001000)  returns 0x00 (0000ms, 0665ms total)
T1738 001:145 JLINK_WriteReg(R14, 0x20000001)  returns 0x00 (0000ms, 0665ms total)
T1738 001:145 JLINK_WriteReg(R15 (PC), 0x200000F4)  returns 0x00 (0000ms, 0665ms total)
T1738 001:145 JLINK_WriteReg(XPSR, 0x01000000)  returns 0x00 (0000ms, 0665ms total)
T1738 001:145 JLINK_WriteReg(MSP, 0x20001000)  returns 0x00 (0000ms, 0665ms total)
T1738 001:145 JLINK_WriteReg(PSP, 0x20001000)  returns 0x00 (0000ms, 0665ms total)
T1738 001:145 JLINK_WriteReg(CFBP, 0x00000000)  returns 0x00 (0000ms, 0665ms total)
T1738 001:145 JLINK_SetBPEx(Addr = 0x20000000, Type = 0xFFFFFFF2)  returns 0x0000000B (0000ms, 0665ms total)
T1738 001:145 JLINK_Go() -- CPU_ReadMem(4 bytes @ 0xE0001000) (0004ms, 0669ms total)
T1738 001:149 JLINK_IsHalted()  returns FALSE (0001ms, 0670ms total)
T1738 001:156 JLINK_IsHalted()  returns FALSE (0001ms, 0670ms total)
T1738 001:159 JLINK_IsHalted()  returns FALSE (0001ms, 0670ms total)
T1738 001:162 JLINK_IsHalted()  returns FALSE (0001ms, 0670ms total)
T1738 001:165 JLINK_IsHalted()  returns FALSE (0001ms, 0670ms total)
T1738 001:168 JLINK_IsHalted()  returns FALSE (0000ms, 0669ms total)
T1738 001:170 JLINK_IsHalted()  returns FALSE (0000ms, 0669ms total)
T1738 001:172 JLINK_IsHalted()  returns FALSE (0000ms, 0669ms total)
T1738 001:174 JLINK_IsHalted()  returns FALSE (0000ms, 0669ms total)
T1738 001:177 JLINK_IsHalted()  returns FALSE (0001ms, 0670ms total)
T1738 001:180 JLINK_IsHalted() -- CPU_ReadMem(2 bytes @ 0x20000000)  returns TRUE (0005ms, 0674ms total)
T1738 001:185 JLINK_ReadReg(R15 (PC))  returns 0x20000000 (0000ms, 0669ms total)
T1738 001:185 JLINK_ClrBPEx(BPHandle = 0x0000000B)  returns 0x00 (0000ms, 0669ms total)
T1738 001:185 JLINK_ReadReg(R0)  returns 0x00000000 (0000ms, 0669ms total)
T1738 001:186 JLINK_WriteMem(0x20000164, 0x0400 Bytes, ...) - Data: 80 3E 40 1F A0 0F D0 07 00 00 00 00 02 04 06 08 ... -- CPU_WriteMem(1024 bytes @ 0x20000164)  returns 0x400 (0009ms, 0678ms total)
T1738 001:195 JLINK_WriteReg(R0, 0x08001C00)  returns 0x00 (0000ms, 0678ms total)
T1738 001:195 JLINK_WriteReg(R1, 0x00000038)  returns 0x00 (0000ms, 0678ms total)
T1738 001:195 JLINK_WriteReg(R2, 0x20000164)  returns 0x00 (0000ms, 0678ms total)
T1738 001:195 JLINK_WriteReg(R3, 0x00000000)  returns 0x00 (0000ms, 0678ms total)
T1738 001:195 JLINK_WriteReg(R4, 0x00000000)  returns 0x00 (0000ms, 0678ms total)
T1738 001:195 JLINK_WriteReg(R5, 0x00000000)  returns 0x00 (0000ms, 0678ms total)
T1738 001:195 JLINK_WriteReg(R6, 0x00000000)  returns 0x00 (0000ms, 0678ms total)
T1738 001:195 JLINK_WriteReg(R7, 0x00000000)  returns 0x00 (0000ms, 0678ms total)
T1738 001:195 JLINK_WriteReg(R8, 0x00000000)  returns 0x00 (0000ms, 0678ms total)
T1738 001:195 JLINK_WriteReg(R9, 0x20000160)  returns 0x00 (0000ms, 0678ms total)
T1738 001:195 JLINK_WriteReg(R10, 0x00000000)  returns 0x00 (0000ms, 0678ms total)
T1738 001:195 JLINK_WriteReg(R11, 0x00000000)  returns 0x00 (0000ms, 0678ms total)
T1738 001:195 JLINK_WriteReg(R12, 0x00000000)  returns 0x00 (0000ms, 0678ms total)
T1738 001:195 JLINK_WriteReg(R13 (SP), 0x20001000)  returns 0x00 (0000ms, 0678ms total)
T1738 001:195 JLINK_WriteReg(R14, 0x20000001)  returns 0x00 (0000ms, 0678ms total)
T1738 001:195 JLINK_WriteReg(R15 (PC), 0x200000F4)  returns 0x00 (0000ms, 0678ms total)
T1738 001:195 JLINK_WriteReg(XPSR, 0x01000000)  returns 0x00 (0000ms, 0678ms total)
T1738 001:195 JLINK_WriteReg(MSP, 0x20001000)  returns 0x00 (0000ms, 0678ms total)
T1738 001:195 JLINK_WriteReg(PSP, 0x20001000)  returns 0x00 (0000ms, 0678ms total)
T1738 001:195 JLINK_WriteReg(CFBP, 0x00000000)  returns 0x00 (0000ms, 0678ms total)
T1738 001:195 JLINK_SetBPEx(Addr = 0x20000000, Type = 0xFFFFFFF2)  returns 0x0000000C (0000ms, 0678ms total)
T1738 001:195 JLINK_Go() -- CPU_ReadMem(4 bytes @ 0xE0001000) (0004ms, 0682ms total)
T1738 001:199 JLINK_IsHalted()  returns FALSE (0002ms, 0684ms total)
T1738 001:203 JLINK_IsHalted() -- CPU_ReadMem(2 bytes @ 0x20000000)  returns TRUE (0005ms, 0687ms total)
T1738 001:208 JLINK_ReadReg(R15 (PC))  returns 0x20000000 (0000ms, 0682ms total)
T1738 001:208 JLINK_ClrBPEx(BPHandle = 0x0000000C)  returns 0x00 (0000ms, 0682ms total)
T1738 001:208 JLINK_ReadReg(R0)  returns 0x00000000 (0000ms, 0682ms total)
T1738 001:209 JLINK_WriteReg(R0, 0x00000002)  returns 0x00 (0000ms, 0683ms total)
T1738 001:209 JLINK_WriteReg(R1, 0x00000038)  returns 0x00 (0000ms, 0683ms total)
T1738 001:209 JLINK_WriteReg(R2, 0x20000164)  returns 0x00 (0000ms, 0683ms total)
T1738 001:209 JLINK_WriteReg(R3, 0x00000000)  returns 0x00 (0000ms, 0683ms total)
T1738 001:209 JLINK_WriteReg(R4, 0x00000000)  returns 0x00 (0000ms, 0683ms total)
T1738 001:209 JLINK_WriteReg(R5, 0x00000000)  returns 0x00 (0000ms, 0683ms total)
T1738 001:209 JLINK_WriteReg(R6, 0x00000000)  returns 0x00 (0000ms, 0683ms total)
T1738 001:209 JLINK_WriteReg(R7, 0x00000000)  returns 0x00 (0000ms, 0683ms total)
T1738 001:209 JLINK_WriteReg(R8, 0x00000000)  returns 0x00 (0000ms, 0683ms total)
T1738 001:209 JLINK_WriteReg(R9, 0x20000160)  returns 0x00 (0000ms, 0683ms total)
T1738 001:209 JLINK_WriteReg(R10, 0x00000000)  returns 0x00 (0000ms, 0683ms total)
T1738 001:209 JLINK_WriteReg(R11, 0x00000000)  returns 0x00 (0000ms, 0683ms total)
T1738 001:209 JLINK_WriteReg(R12, 0x00000000)  returns 0x00 (0000ms, 0683ms total)
T1738 001:209 JLINK_WriteReg(R13 (SP), 0x20001000)  returns 0x00 (0000ms, 0683ms total)
T1738 001:209 JLINK_WriteReg(R14, 0x20000001)  returns 0x00 (0000ms, 0683ms total)
T1738 001:209 JLINK_WriteReg(R15 (PC), 0x2000006A)  returns 0x00 (0000ms, 0683ms total)
T1738 001:209 JLINK_WriteReg(XPSR, 0x01000000)  returns 0x00 (0000ms, 0683ms total)
T1738 001:209 JLINK_WriteReg(MSP, 0x20001000)  returns 0x00 (0000ms, 0683ms total)
T1738 001:209 JLINK_WriteReg(PSP, 0x20001000)  returns 0x00 (0000ms, 0683ms total)
T1738 001:209 JLINK_WriteReg(CFBP, 0x00000000)  returns 0x00 (0000ms, 0683ms total)
T1738 001:209 JLINK_SetBPEx(Addr = 0x20000000, Type = 0xFFFFFFF2)  returns 0x0000000D (0000ms, 0683ms total)
T1738 001:209 JLINK_Go() -- CPU_ReadMem(4 bytes @ 0xE0001000) (0004ms, 0687ms total)
T1738 001:213 JLINK_IsHalted() -- CPU_ReadMem(2 bytes @ 0x20000000)  returns TRUE (0006ms, 0693ms total)
T1738 001:219 JLINK_ReadReg(R15 (PC))  returns 0x20000000 (0000ms, 0687ms total)
T1738 001:219 JLINK_ClrBPEx(BPHandle = 0x0000000D)  returns 0x00 (0000ms, 0687ms total)
T1738 001:219 JLINK_ReadReg(R0)  returns 0x00000000 (0000ms, 0687ms total)
T1738 001:278 JLINK_WriteMem(0x20000000, 0x0164 Bytes, ...) - Data: 00 BE 0A E0 0D 78 2D 06 68 40 08 24 40 00 00 D3 ... -- CPU_WriteMem(356 bytes @ 0x20000000)  returns 0x164 (0004ms, 0691ms total)
T1738 001:282 JLINK_WriteReg(R0, 0x08000000)  returns 0x00 (0000ms, 0691ms total)
T1738 001:282 JLINK_WriteReg(R1, 0x007A1200)  returns 0x00 (0000ms, 0691ms total)
T1738 001:282 JLINK_WriteReg(R2, 0x00000003)  returns 0x00 (0000ms, 0691ms total)
T1738 001:282 JLINK_WriteReg(R3, 0x00000000)  returns 0x00 (0001ms, 0692ms total)
T1738 001:283 JLINK_WriteReg(R4, 0x00000000)  returns 0x00 (0000ms, 0692ms total)
T1738 001:283 JLINK_WriteReg(R5, 0x00000000)  returns 0x00 (0000ms, 0692ms total)
T1738 001:283 JLINK_WriteReg(R6, 0x00000000)  returns 0x00 (0000ms, 0692ms total)
T1738 001:283 JLINK_WriteReg(R7, 0x00000000)  returns 0x00 (0000ms, 0692ms total)
T1738 001:283 JLINK_WriteReg(R8, 0x00000000)  returns 0x00 (0000ms, 0692ms total)
T1738 001:283 JLINK_WriteReg(R9, 0x20000160)  returns 0x00 (0000ms, 0692ms total)
T1738 001:283 JLINK_WriteReg(R10, 0x00000000)  returns 0x00 (0000ms, 0692ms total)
T1738 001:283 JLINK_WriteReg(R11, 0x00000000)  returns 0x00 (0000ms, 0692ms total)
T1738 001:283 JLINK_WriteReg(R12, 0x00000000)  returns 0x00 (0000ms, 0692ms total)
T1738 001:283 JLINK_WriteReg(R13 (SP), 0x20001000)  returns 0x00 (0000ms, 0692ms total)
T1738 001:283 JLINK_WriteReg(R14, 0x20000001)  returns 0x00 (0000ms, 0692ms total)
T1738 001:283 JLINK_WriteReg(R15 (PC), 0x20000038)  returns 0x00 (0000ms, 0692ms total)
T1738 001:283 JLINK_WriteReg(XPSR, 0x01000000)  returns 0x00 (0000ms, 0692ms total)
T1738 001:283 JLINK_WriteReg(MSP, 0x20001000)  returns 0x00 (0000ms, 0692ms total)
T1738 001:283 JLINK_WriteReg(PSP, 0x20001000)  returns 0x00 (0000ms, 0692ms total)
T1738 001:283 JLINK_WriteReg(CFBP, 0x00000000)  returns 0x00 (0000ms, 0692ms total)
T1738 001:283 JLINK_SetBPEx(Addr = 0x20000000, Type = 0xFFFFFFF2) -- CPU_ReadMem(2 bytes @ 0x20000000)  returns 0x0000000E (0002ms, 0694ms total)
T1738 001:285 JLINK_Go() -- CPU_WriteMem(2 bytes @ 0x20000000) -- CPU_ReadMem(4 bytes @ 0xE0001000) (0005ms, 0699ms total)
T1738 001:290 JLINK_IsHalted() -- CPU_ReadMem(2 bytes @ 0x20000000)  returns TRUE (0006ms, 0705ms total)
T1738 001:296 JLINK_ReadReg(R15 (PC))  returns 0x20000000 (0000ms, 0699ms total)
T1738 001:296 JLINK_ClrBPEx(BPHandle = 0x0000000E)  returns 0x00 (0000ms, 0699ms total)
T1738 001:296 JLINK_ReadReg(R0)  returns 0x00000000 (0000ms, 0699ms total)
T1738 001:296 JLINK_WriteReg(R0, 0xFFFFFFFF)  returns 0x00 (0000ms, 0699ms total)
T1738 001:296 JLINK_WriteReg(R1, 0x08000000)  returns 0x00 (0000ms, 0699ms total)
T1738 001:296 JLINK_WriteReg(R2, 0x00001C38)  returns 0x00 (0000ms, 0699ms total)
T1738 001:296 JLINK_WriteReg(R3, 0x04C11DB7)  returns 0x00 (0000ms, 0699ms total)
T1738 001:296 JLINK_WriteReg(R4, 0x00000000)  returns 0x00 (0000ms, 0699ms total)
T1738 001:296 JLINK_WriteReg(R5, 0x00000000)  returns 0x00 (0000ms, 0699ms total)
T1738 001:296 JLINK_WriteReg(R6, 0x00000000)  returns 0x00 (0000ms, 0699ms total)
T1738 001:296 JLINK_WriteReg(R7, 0x00000000)  returns 0x00 (0000ms, 0699ms total)
T1738 001:296 JLINK_WriteReg(R8, 0x00000000)  returns 0x00 (0000ms, 0699ms total)
T1738 001:296 JLINK_WriteReg(R9, 0x20000160)  returns 0x00 (0000ms, 0699ms total)
T1738 001:296 JLINK_WriteReg(R10, 0x00000000)  returns 0x00 (0000ms, 0699ms total)
T1738 001:296 JLINK_WriteReg(R11, 0x00000000)  returns 0x00 (0000ms, 0699ms total)
T1738 001:296 JLINK_WriteReg(R12, 0x00000000)  returns 0x00 (0000ms, 0699ms total)
T1738 001:296 JLINK_WriteReg(R13 (SP), 0x20001000)  returns 0x00 (0000ms, 0699ms total)
T1738 001:296 JLINK_WriteReg(R14, 0x20000001)  returns 0x00 (0000ms, 0699ms total)
T1738 001:296 JLINK_WriteReg(R15 (PC), 0x20000002)  returns 0x00 (0000ms, 0699ms total)
T1738 001:296 JLINK_WriteReg(XPSR, 0x01000000)  returns 0x00 (0000ms, 0699ms total)
T1738 001:296 JLINK_WriteReg(MSP, 0x20001000)  returns 0x00 (0000ms, 0699ms total)
